#  HZ   S   RI   R     50.00 
! Rohde & Schwarz ZVA67 4Ports - Version 4.11 - 1305.7002k04 SN: 101319
! Date: 2025-11-25 18:16:03
! Measurements: S11 S21 S12 S22 
! 
 2.000000000000000E9    -3.895723223686218E-1  -3.252367973327637E-1  -1.040717493742704E-2   5.106856580823660E-3  -1.036673225462437E-2   5.064188502728939E-3  -2.973221540451050E-1  -3.102218210697174E-1  
 2.020000000000000E9    -3.974329829216003E-1  -2.971304953098297E-1  -3.339387709274888E-3   5.421113688498735E-3  -3.327190410345793E-3   5.379876121878624E-3  -2.937225401401520E-1  -2.858805060386658E-1  
 2.040000000000000E9    -3.965985178947449E-1  -2.710009813308716E-1  -8.808301063254476E-4   5.979730747640133E-3  -1.051667495630682E-3   5.905792117118835E-3  -2.879459559917450E-1  -2.734004557132721E-1  
 2.060000000000000E9    -3.883212506771088E-1  -2.544555068016052E-1   2.665756037458777E-3   6.339767947793007E-3   2.634443575516343E-3   6.281246896833181E-3  -2.818398475646973E-1  -2.682733237743378E-1  
 2.080000000000000E9    -3.771839737892151E-1  -2.423216253519058E-1   5.476382561028004E-3   5.214588716626167E-3   5.664156749844551E-3   5.226895213127136E-3  -2.763498425483704E-1  -2.637400031089783E-1  
 2.100000000000000E9    -3.820754289627075E-1  -2.360041439533234E-1   9.408776648342609E-3   8.615656988695264E-4   9.430040605366230E-3   8.831374580040574E-4  -2.824871242046356E-1  -2.616457343101502E-1  
 2.120000000000000E9    -3.930970728397369E-1  -2.359481900930405E-1   9.920931421220303E-3  -3.507422981783748E-3   9.816884063184261E-3  -3.512563882395625E-3  -2.987675070762634E-1  -2.676422595977783E-1  
 2.140000000000000E9    -4.024355411529541E-1  -2.305017560720444E-1   8.380233310163021E-3  -5.753643345087767E-3   8.146616630256176E-3  -6.016646046191454E-3  -3.082224428653717E-1  -2.676386535167694E-1  
 2.160000000000000E9    -4.107290506362915E-1  -2.232522368431091E-1   6.117987912148237E-3  -6.633949000388384E-3   6.241849623620510E-3  -6.671176292002201E-3  -3.189039528369904E-1  -2.613188922405243E-1  
 2.180000000000000E9    -4.258442521095276E-1  -2.126834392547607E-1   4.617684055119753E-3  -5.973136983811855E-3   4.468581639230251E-3  -6.064322777092457E-3  -3.373331725597382E-1  -2.518280744552612E-1  
 2.200000000000000E9    -4.439041614532471E-1  -1.935213804244995E-1   5.227735266089439E-3  -6.532500497996807E-3   5.276737269014120E-3  -6.656761281192303E-3  -3.579427599906921E-1  -2.384217232465744E-1  
 2.220000000000000E9    -4.585640132427216E-1  -1.806156635284424E-1   7.534788921475411E-3  -5.734559614211321E-3   7.424037903547287E-3  -5.885337479412556E-3  -3.786169588565826E-1  -2.223136872053146E-1  
 2.240000000000000E9    -4.754102826118469E-1  -1.625384390354157E-1   7.787052076309919E-3  -6.711284164339304E-3   7.858551107347012E-3  -6.830659229308367E-3  -3.937307000160217E-1  -1.984197199344635E-1  
 2.260000000000000E9    -4.893371760845184E-1  -1.373652070760727E-1   6.307251751422882E-3  -1.223392039537430E-2   6.362529005855322E-3  -1.218040566891432E-2  -4.054021537303925E-1  -1.741151660680771E-1  
 2.280000000000000E9    -5.006390810012817E-1  -1.073831692337990E-1   5.666200537234545E-3  -1.491497643291950E-2   5.607637111097574E-3  -1.483326312154532E-2  -4.124012887477875E-1  -1.489748805761337E-1  
 2.300000000000000E9    -5.077389478683472E-1  -7.645974308252335E-2   5.518917925655842E-3  -1.586262136697769E-2   5.417764652520418E-3  -1.595272682607174E-2  -4.137763977050781E-1  -1.206361278891563E-1  
 2.320000000000000E9    -5.089808702468872E-1  -4.375297203660011E-2   3.917268943041563E-3  -1.531014312058687E-2   3.877074224874377E-3  -1.527063827961683E-2  -4.136955440044403E-1  -9.434870630502701E-2  
 2.340000000000000E9    -5.113728046417236E-1  -2.086875401437283E-2  -1.480825449107215E-4  -1.290077529847622E-2  -1.674285304034129E-4  -1.287424750626087E-2  -4.164479672908783E-1  -7.241885364055634E-2  
 2.360000000000000E9    -5.071280002593994E-1   1.187327411025763E-2  -1.322841853834689E-3  -1.089070457965136E-2  -1.382260699756444E-3  -1.097885146737099E-2  -4.145092070102692E-1  -4.986412823200226E-2  
 2.380000000000000E9    -4.946128427982330E-1   4.433448612689972E-2  -1.207221182994545E-3  -1.146827172487974E-2  -1.220323145389557E-3  -1.161309052258730E-2  -4.006073772907257E-1  -2.279606275260449E-2  
 2.400000000000000E9    -4.839903116226196E-1   7.437539100646973E-2   5.437120562419295E-4  -1.137244515120983E-2   6.189785199239850E-4  -1.127170026302338E-2  -3.830150961875916E-1   5.783971399068832E-3  
 2.420000000000000E9    -4.649617075920105E-1   1.017370522022247E-1   1.090271631255746E-3  -1.212165318429470E-2   9.756248327903450E-4  -1.186635065823793E-2  -3.674188852310181E-1   3.058616071939468E-2  
 2.440000000000000E9    -4.462533593177795E-1   1.191358864307404E-1  -1.431624870747328E-3  -8.757668547332287E-3  -1.420409302227199E-3  -8.729731664061546E-3  -3.482233285903931E-1   3.879887983202934E-2  
 2.460000000000000E9    -4.183452129364014E-1   1.305739879608154E-1   1.830322435125709E-5  -9.304380044341087E-3   1.834591384977102E-4  -9.225873276591301E-3  -3.235158920288086E-1   3.504214063286781E-2  
 2.480000000000000E9    -4.009878635406494E-1   1.368573009967804E-1   3.677438711747527E-3  -1.135921292006970E-2   3.712535835802555E-3  -1.135470159351826E-2  -3.016754090785980E-1   3.049736097455025E-2  
 2.500000000000000E9    -3.882485926151276E-1   1.430581659078598E-1   7.027940824627876E-3  -1.316398382186890E-2   7.241280283778906E-3  -1.328039821237326E-2  -2.968482375144959E-1   3.040848858654499E-2  
 2.520000000000000E9    -3.778239488601685E-1   1.371243745088577E-1   5.207996815443039E-3  -1.763760298490524E-2   5.229792091995478E-3  -1.771950721740723E-2  -2.975718379020691E-1   1.942790299654007E-2  
 2.540000000000000E9    -3.658379912376404E-1   1.350342929363251E-1   2.042808569967747E-3  -1.940206438302994E-2   2.119394950568676E-3  -1.948562078177929E-2  -2.985303103923798E-1   1.733970083296299E-2  
 2.560000000000000E9    -3.623181581497192E-1   1.419883817434311E-1  -2.477939706295729E-3  -2.516650781035423E-2  -2.364961197599769E-3  -2.510702051222324E-2  -2.989254891872406E-1   1.798557676374912E-2  
 2.580000000000000E9    -3.655304610729218E-1   1.443705856800079E-1  -6.653033196926117E-3  -2.297592535614967E-2  -6.637981161475182E-3  -2.301732264459133E-2  -3.089670538902283E-1   2.152312174439430E-2  
 2.600000000000000E9    -3.692567348480225E-1   1.492583006620407E-1  -9.223407134413719E-3  -1.839645951986313E-2  -9.261975064873695E-3  -1.850783824920654E-2  -3.150480091571808E-1   2.650156244635582E-2  
 2.620000000000000E9    -3.651351034641266E-1   1.551336199045181E-1  -9.879219345748425E-3  -1.161351520568132E-2  -9.563572704792023E-3  -1.159199513494968E-2  -3.161751925945282E-1   3.349009528756142E-2  
 2.640000000000000E9    -3.621442914009094E-1   1.656471937894821E-1  -7.891996763646603E-3  -1.015649084001780E-2  -7.848473265767098E-3  -1.019238121807575E-2  -3.211510777473450E-1   4.015877097845078E-2  
 2.660000000000000E9    -3.651920258998871E-1   1.742767244577408E-1  -5.506254266947508E-3  -9.565092623233795E-3  -5.479431711137295E-3  -9.556205011904240E-3  -3.362034261226654E-1   5.017198249697685E-2  
 2.680000000000000E9    -3.716628849506378E-1   1.869096010923386E-1  -2.400871599093080E-3  -1.593499444425106E-2  -2.361013554036617E-3  -1.591864041984081E-2  -3.486334681510925E-1   6.616196036338806E-2  
 2.700000000000000E9    -3.800218105316162E-1   2.067779451608658E-1  -3.095804713666439E-3  -2.033893018960953E-2  -2.883107401430607E-3  -2.042842656373978E-2  -3.566921353340149E-1   8.816283196210861E-2  
 2.720000000000000E9    -3.841446340084076E-1   2.278821766376495E-1  -7.459936663508415E-3  -2.347776666283608E-2  -7.617838680744171E-3  -2.326511591672897E-2  -3.569958209991455E-1   1.143149361014366E-1  
 2.740000000000000E9    -3.785554468631744E-1   2.579050064086914E-1  -1.480874605476856E-2  -2.123812586069107E-2  -1.500281039625406E-2  -2.112744189798832E-2  -3.554992675781250E-1   1.452000588178635E-1  
 2.760000000000000E9    -3.652639687061310E-1   2.848578095436096E-1  -2.223684079945087E-2  -1.686087623238564E-2  -2.199746109545231E-2  -1.687867194414139E-2  -3.488114178180695E-1   1.768933832645416E-1  
 2.780000000000000E9    -3.456253409385681E-1   3.155105710029602E-1  -2.259577624499798E-2  -1.013205386698246E-2  -2.284341305494309E-2  -1.013282034546137E-2  -3.339579701423645E-1   2.032662481069565E-1  
 2.800000000000000E9    -3.245406448841095E-1   3.401380777359009E-1  -1.498649735003710E-2  -6.049681454896927E-3  -1.523187570273876E-2  -5.997322034090757E-3  -3.152126371860504E-1   2.272422909736633E-1  
 2.820000000000000E9    -3.017817437648773E-1   3.648395240306854E-1  -9.005643427371979E-3  -2.192016225308180E-3  -8.922649547457695E-3  -2.295376732945442E-3  -2.926912605762482E-1   2.570315003395081E-1  
 2.840000000000000E9    -2.644634544849396E-1   3.795333802700043E-1  -5.399200599640608E-3  -3.440269967541099E-3  -5.075707100331783E-3  -3.375793807208538E-3  -2.563549876213074E-1   2.880472540855408E-1  
 2.860000000000000E9    -2.190209329128265E-1   3.914709687232971E-1  -3.891399595886469E-3  -7.912887260317802E-3  -3.772340947762132E-3  -7.954748347401619E-3  -2.061678320169449E-1   3.062324523925781E-1  
 2.880000000000000E9    -1.768777668476105E-1   3.865844011306763E-1  -5.938681308180094E-3  -1.420581340789795E-2  -6.089841946959496E-3  -1.408844906836748E-2  -1.521989703178406E-1   3.006546497344971E-1  
 2.900000000000000E9    -1.398154199123383E-1   3.641832172870636E-1  -8.542561903595924E-3  -1.660101860761643E-2  -8.340752683579922E-3  -1.653872057795525E-2  -1.003191396594048E-1   2.779905796051025E-1  
 2.920000000000000E9    -1.123611778020859E-1   3.357512950897217E-1  -1.125718373805285E-2  -1.480532810091972E-2  -1.117029692977667E-2  -1.510825101286173E-2  -5.673153325915337E-2   2.368998527526856E-1  
 2.940000000000000E9    -1.016017869114876E-1   3.053324222564697E-1  -1.531972922384739E-2  -1.627782359719276E-2  -1.543129235506058E-2  -1.629892736673355E-2  -4.574559628963471E-2   1.828759014606476E-1  
 2.960000000000000E9    -1.088268980383873E-1   2.735904157161713E-1  -1.975870504975319E-2  -1.638001576066017E-2  -1.941827870905399E-2  -1.639121957123280E-2  -6.120834499597549E-2   1.330291330814362E-1  
 2.980000000000000E9    -1.267956495285034E-1   2.556939125061035E-1  -1.911219954490662E-2  -1.469319686293602E-2  -1.930812373757362E-2  -1.494897156953812E-2  -9.304081648588181E-2   9.934139996767044E-2  
 3.000000000000000E9    -1.385867297649384E-1   2.505695223808289E-1  -2.154524624347687E-2  -9.374668821692467E-3  -2.141457423567772E-2  -9.513055905699730E-3  -1.294940561056137E-1   9.491619467735291E-2  
 3.020000000000000E9    -1.568853259086609E-1   2.569945156574249E-1  -2.212278917431831E-2  -6.164708174765110E-3  -2.215147949755192E-2  -6.180896889418364E-3  -1.624349504709244E-1   1.076844260096550E-1  
 3.040000000000000E9    -1.730717718601227E-1   2.692104876041412E-1  -2.267832309007645E-2  -7.040765136480331E-3  -2.256226167082787E-2  -7.114302366971970E-3  -1.846257746219635E-1   1.243380606174469E-1  
 3.060000000000000E9    -1.778133064508438E-1   2.854585945606232E-1  -1.932792924344540E-2  -7.306773215532303E-3  -1.940866373479366E-2  -7.076880428940058E-3  -1.938633322715759E-1   1.468475908041000E-1  
 3.080000000000000E9    -1.713920086622238E-1   3.064569830894470E-1  -1.564340665936470E-2  -4.418598953634501E-3  -1.578944921493530E-2  -4.413072951138020E-3  -1.854042559862137E-1   1.745423674583435E-1  
 3.100000000000000E9    -1.618481576442719E-1   3.235241472721100E-1  -1.531887985765934E-2  -3.414117265492678E-3  -1.536193862557411E-2  -3.482529660686851E-3  -1.802843660116196E-1   1.983882635831833E-1  
 3.120000000000000E9    -1.564895659685135E-1   3.386429548263550E-1  -1.488172449171543E-2  -6.738689262419939E-3  -1.489695440977812E-2  -6.551131140440702E-3  -1.825302541255951E-1   2.206896841526032E-1  
 3.140000000000000E9    -1.469283849000931E-1   3.523154854774475E-1  -1.909725554287434E-2  -1.076151244342327E-2  -1.941375061869621E-2  -1.092261075973511E-2  -1.696641296148300E-1   2.374116331338882E-1  
 3.160000000000000E9    -1.278649717569351E-1   3.656177222728729E-1  -2.325293794274330E-2  -9.793475270271301E-3  -2.317867614328861E-2  -9.644801728427410E-3  -1.404199600219727E-1   2.593268752098084E-1  
 3.180000000000000E9    -1.074545234441757E-1   3.845947086811066E-1  -2.721048146486282E-2  -6.846763659268618E-3  -2.703303098678589E-2  -6.700479891151190E-3  -1.095904186367989E-1   2.766892313957214E-1  
 3.200000000000000E9    -8.527071774005890E-2   3.987945318222046E-1  -3.212640061974526E-2   6.100457976572216E-4  -3.189713507890701E-2   6.914493278600276E-4  -8.163063228130341E-2   2.867808640003204E-1  
 3.220000000000000E9    -5.149240419268608E-2   4.063716530799866E-1  -3.163140267133713E-2   7.516595534980297E-3  -3.157189488410950E-2   7.200389634817839E-3  -4.820336401462555E-2   2.798442542552948E-1  
 3.240000000000000E9    -1.588481105864048E-2   3.999205231666565E-1  -2.455428242683411E-2   1.079314667731524E-2  -2.447224967181683E-2   1.114460080862045E-2  -8.244710974395275E-3   2.649883031845093E-1  
 3.260000000000000E9     1.758409664034843E-2   3.913155794143677E-1  -1.573272794485092E-2   1.048153452575207E-2  -1.568817347288132E-2   1.040943898260593E-2   2.219050750136375E-2   2.468698769807816E-1  
 3.280000000000000E9     4.006398469209671E-2   3.714417517185211E-1  -1.237706281244755E-2   7.442466914653778E-3  -1.225597970187664E-2   7.590079214423895E-3   3.701520711183548E-2   2.210463434457779E-1  
 3.300000000000000E9     5.846139416098595E-2   3.466168344020844E-1  -1.181294489651918E-2   1.583722536452115E-3  -1.171790715306997E-2   1.798481913283467E-3   4.233815148472786E-2   1.914755553007126E-1  
 3.320000000000000E9     7.003803551197052E-2   3.240595161914825E-1  -1.436921674758196E-2  -1.942260656505823E-3  -1.441484596580267E-2  -1.840318320319057E-3   5.283176153898239E-2   1.579556316137314E-1  
 3.340000000000000E9     7.493955641984940E-2   3.069226145744324E-1  -1.657425239682198E-2  -3.042919328436256E-3  -1.648157648742199E-2  -3.173956414684653E-3   4.702676460146904E-2   1.383711099624634E-1  
 3.360000000000000E9     6.808868050575256E-2   2.881858646869659E-1  -2.156205475330353E-2  -1.368461991660297E-3  -2.149007283151150E-2  -1.538047799840570E-3   2.880118228495121E-2   1.182397753000259E-1  
 3.380000000000000E9     6.007774919271469E-2   2.758522033691406E-1  -2.412162534892559E-2   8.725766092538834E-4  -2.404631488025188E-2   9.925353806465864E-4   8.238514885306358E-3   1.024082824587822E-1  
 3.400000000000000E9     5.776638910174370E-2   2.686564624309540E-1  -2.552440203726292E-2   4.169482272118330E-3  -2.539625950157642E-2   4.130481276661158E-3  -1.446036505512893E-3   9.039137512445450E-2  
 3.420000000000000E9     5.412611365318298E-2   2.682818174362183E-1  -2.235589921474457E-2   6.332905497401953E-3  -2.243502810597420E-2   6.165147293359041E-3  -1.887194439768791E-2   9.118665009737015E-2  
 3.440000000000000E9     4.455971345305443E-2   2.670296728610992E-1  -2.202229201793671E-2   8.673029020428658E-3  -2.205596864223480E-2   8.798617869615555E-3  -3.772189468145371E-2   9.731125086545944E-2  
 3.460000000000000E9     3.737691044807434E-2   2.678619027137756E-1  -2.094802446663380E-2   9.991276077926159E-3  -2.101798914372921E-2   9.931799024343491E-3  -5.995680019259453E-2   1.084806621074677E-1  
 3.480000000000000E9     3.779910504817963E-2   2.770372033119202E-1  -1.993189007043839E-2   8.330934680998325E-3  -1.975707150995731E-2   8.100916631519795E-3  -6.388061493635178E-2   1.269950270652771E-1  
 3.500000000000000E9     4.108427092432976E-2   2.902458608150482E-1  -1.767650246620178E-2   1.020226441323757E-2  -1.749011129140854E-2   1.008571032434702E-2  -6.118864938616753E-2   1.500898599624634E-1  
 3.520000000000000E9     4.581289365887642E-2   3.063971698284149E-1  -1.643016561865807E-2   1.024986058473587E-2  -1.662727445363998E-2   9.897306561470032E-3  -5.469166487455368E-2   1.739142090082169E-1  
 3.540000000000000E9     6.322693079710007E-2   3.242616057395935E-1  -2.043390460312367E-2   1.022244058549404E-2  -2.046270668506622E-2   1.021115761250258E-2  -4.179750382900238E-2   1.884880065917969E-1  
 3.560000000000000E9     8.521980792284012E-2   3.301285505294800E-1  -2.008360251784325E-2   1.007546763867140E-2  -1.987442187964916E-2   1.015999540686607E-2  -1.651764474809170E-2   1.975714713335037E-1  
 3.580000000000000E9     1.156504824757576E-1   3.266765177249908E-1  -1.811676472425461E-2   1.146722491830587E-2  -1.831143163144589E-2   1.150735095143318E-2   1.054798718541861E-2   1.968597471714020E-1  
 3.600000000000000E9     1.385732144117355E-1   3.176509141921997E-1  -1.766656897962093E-2   1.269677747040987E-2  -1.751595176756382E-2   1.273187994956970E-2   2.577575109899044E-2   1.878114342689514E-1  
 3.620000000000000E9     1.550118476152420E-1   3.032052516937256E-1  -1.881182007491589E-2   1.476424187421799E-2  -1.882920414209366E-2   1.442089211195707E-2   3.915689885616303E-2   1.769602298736572E-1  
 3.640000000000000E9     1.654219180345535E-1   2.879735529422760E-1  -1.532507967203856E-2   1.598889566957951E-2  -1.540307886898518E-2   1.574499532580376E-2   4.971749335527420E-2   1.655948907136917E-1  
 3.660000000000000E9     1.768620014190674E-1   2.728124558925629E-1  -1.444918196648359E-2   1.464291755110025E-2  -1.433736365288496E-2   1.500170864164829E-2   6.083837524056435E-2   1.554934680461884E-1  
 3.680000000000000E9     1.837902516126633E-1   2.614377737045288E-1  -1.281165983527899E-2   1.668307371437550E-2  -1.297482848167419E-2   1.657775416970253E-2   6.334435939788818E-2   1.483613699674606E-1  
 3.700000000000000E9     1.948570460081101E-1   2.545845806598663E-1  -1.448769029229879E-2   1.650270819664002E-2  -1.451649889349937E-2   1.614316552877426E-2   6.981296092271805E-2   1.418489962816238E-1  
 3.720000000000000E9     2.027939409017563E-1   2.397447377443314E-1  -1.157257612794638E-2   1.590949296951294E-2  -1.155695319175720E-2   1.576275378465653E-2   7.703820616006851E-2   1.295328438282013E-1  
 3.740000000000000E9     2.096005678176880E-1   2.237675637006760E-1  -1.151850726455450E-2   1.290541794151068E-2  -1.155860815197229E-2   1.285652164369822E-2   8.022303879261017E-2   1.156611219048500E-1  
 3.760000000000000E9     2.090149372816086E-1   2.076530307531357E-1  -1.195190940052271E-2   1.330643985420466E-2  -1.191735733300448E-2   1.318830065429211E-2   7.916940748691559E-2   1.029791459441185E-1  
 3.780000000000000E9     2.092359960079193E-1   1.964597404003143E-1  -1.321183703839779E-2   1.208244450390339E-2  -1.304595638066530E-2   1.188518386334181E-2   7.629968971014023E-2   9.817741066217423E-2  
 3.800000000000000E9     2.070179879665375E-1   1.831859201192856E-1  -1.467988733202219E-2   1.251112110912800E-2  -1.460013445466757E-2   1.199275720864534E-2   7.654303312301636E-2   8.544271439313889E-2  
 3.820000000000000E9     1.998327523469925E-1   1.728001832962036E-1  -1.400046143680811E-2   1.285024080425501E-2  -1.397284492850304E-2   1.295734383165836E-2   6.964300572872162E-2   7.472647726535797E-2  
 3.840000000000000E9     1.993153691291809E-1   1.636476367712021E-1  -1.692145876586437E-2   1.698579452931881E-2  -1.707881875336170E-2   1.706750877201557E-2   6.280882656574249E-2   6.904995441436768E-2  
 3.860000000000000E9     2.011687755584717E-1   1.618029624223709E-1  -1.627955958247185E-2   1.906554773449898E-2  -1.667015440762043E-2   1.891900226473808E-2   5.981757119297981E-2   7.061445713043213E-2  
