#  HZ   S   RI   R     50.00 
! Rohde & Schwarz ZVA67 4Ports - Version 4.11 - 1305.7002k04 SN: 101319
! Date: 2025-11-25 18:25:52
! Measurements: S11 S21 S12 S22 
! 
 2.000000000000000E9     3.738647401332855E-1   2.399581521749497E-1  -1.802101358771324E-2  -1.412884425371885E-2  -1.798372715711594E-2  -1.433859393000603E-2   3.714100122451782E-1   3.529498353600502E-2  
 2.020000000000000E9     3.849510252475739E-1   1.822261661291122E-1  -2.566245198249817E-2  -1.466298196464777E-2  -2.553429082036018E-2  -1.474850438535214E-2   3.547985553741455E-1  -2.136986516416073E-2  
 2.040000000000000E9     3.855027854442596E-1   1.093665957450867E-1  -2.622417733073235E-2  -1.305208541452885E-2  -2.608112432062626E-2  -1.310939062386751E-2   3.295263051986694E-1  -7.298083603382111E-2  
 2.060000000000000E9     3.735513687133789E-1   3.646552562713623E-2  -3.102418221533299E-2  -9.867106564342976E-3  -3.103654645383358E-2  -9.901809506118298E-3   2.794916331768036E-1  -1.153432503342629E-1  
 2.080000000000000E9     3.466567695140839E-1  -2.640546485781670E-2  -3.499989956617355E-2  -6.960386410355568E-3  -3.514608368277550E-2  -6.987418513745070E-3   2.251417487859726E-1  -1.483020186424255E-1  
 2.100000000000000E9     2.917437553405762E-1  -7.774496078491211E-2  -3.675523400306702E-2  -2.446665661409497E-3  -3.666525706648827E-2  -2.571612829342485E-3   1.558421403169632E-1  -1.553934812545776E-1  
 2.120000000000000E9     2.152402400970459E-1  -1.095603704452515E-1  -4.136021062731743E-2   3.977459855377674E-3  -4.215497523546219E-2   3.696637228131294E-3   9.537241607904434E-2  -1.444157809019089E-1  
 2.140000000000000E9     1.439784914255142E-1  -1.306586861610413E-1  -3.814420849084854E-2   1.350857783108950E-2  -3.824501484632492E-2   1.314950268715620E-2   5.750157684087753E-2  -1.154598966240883E-1  
 2.160000000000000E9     7.802048325538635E-2  -1.184132173657417E-1  -3.547048568725586E-2   1.862018369138241E-2  -3.554305806756020E-2   1.854747161269188E-2   2.848689444363117E-2  -7.320900261402130E-2  
 2.180000000000000E9     1.639765501022339E-2  -8.015473932027817E-2  -2.986879833042622E-2   2.509743534028530E-2  -3.021132387220860E-2   2.537278831005096E-2   1.108817290514708E-2  -3.164780512452126E-2  
 2.200000000000000E9    -2.970549836754799E-2  -1.566934026777744E-2  -2.633446268737316E-2   2.944120392203331E-2  -2.627046965062618E-2   2.954826876521111E-2  -3.925822209566832E-3   1.207148656249046E-2  
 2.220000000000000E9    -4.487849771976471E-2   4.859593510627747E-2  -1.967248320579529E-2   3.144780918955803E-2  -1.974927634000778E-2   3.133584186434746E-2   2.910352312028408E-3   5.199624970555306E-2  
 2.240000000000000E9    -4.071253538131714E-2   1.115463078022003E-1  -1.089789345860481E-2   2.974529191851616E-2  -1.070135179907084E-2   2.925244346261025E-2   2.243891172111034E-2   9.667554497718811E-2  
 2.260000000000000E9    -2.253344980999827E-3   1.723697334527969E-1  -3.674095962196589E-3   2.567933127284050E-2  -3.881557844579220E-3   2.561953105032444E-2   6.567912548780441E-2   1.390016973018646E-1  
 2.280000000000000E9     4.983028396964073E-2   2.158789783716202E-1   9.344341815449297E-4   1.841891929507256E-2   9.276185301132500E-4   1.856823265552521E-2   1.138754412531853E-1   1.607531160116196E-1  
 2.300000000000000E9     1.176880225539208E-1   2.354721575975418E-1   2.387995366007090E-3   1.666487194597721E-2   2.355937147513032E-3   1.664185337722302E-2   1.802824884653091E-1   1.653258800506592E-1  
 2.320000000000000E9     1.854415088891983E-1   2.270013988018036E-1   1.547644031234086E-3   1.037564221769571E-2   1.608747174032033E-3   1.047512982040644E-2   2.390550822019577E-1   1.400345265865326E-1  
 2.340000000000000E9     2.503533065319061E-1   1.926730275154114E-1  -2.244966104626656E-3   6.731523666530848E-3  -2.312770113348961E-3   6.694806274026632E-3   2.882646620273590E-1   9.312026202678680E-2  
 2.360000000000000E9     2.972452938556671E-1   1.402475982904434E-1  -6.931507959961891E-3   8.450956083834171E-3  -6.903939414769411E-3   8.506693877279759E-3   3.215857148170471E-1   3.083235397934914E-2  
 2.380000000000000E9     3.380902111530304E-1   7.136549055576325E-2  -9.820745326578617E-3   9.575292468070984E-3  -9.729354642331600E-3   9.414792992174625E-3   3.305417001247406E-1  -4.074963554739952E-2  
 2.400000000000000E9     3.403477966785431E-1  -2.764904871582985E-3  -8.114977739751339E-3   1.418428774923086E-2  -8.303940296173096E-3   1.418151520192623E-2   3.116860985755920E-1  -1.150724142789841E-1  
 2.420000000000000E9     3.137470781803131E-1  -8.310247957706451E-2  -7.360754534602165E-3   1.890334859490395E-2  -7.530638482421637E-3   1.868935115635395E-2   2.634693384170532E-1  -1.718347817659378E-1  
 2.440000000000000E9     2.595166862010956E-1  -1.427998393774033E-1  -3.106764052063227E-3   2.338337339460850E-2  -3.475904930382967E-3   2.322848327457905E-2   1.951604783535004E-1  -2.155819237232208E-1  
 2.460000000000000E9     1.956952214241028E-1  -1.801062226295471E-1   5.928430706262589E-3   2.133554220199585E-2   5.831004586070776E-3   2.145699039101601E-2   1.284510046243668E-1  -2.206313014030457E-1  
 2.480000000000000E9     1.225454360246658E-1  -1.881370246410370E-1   1.011068839579821E-2   1.626503281295300E-2   1.007498707622290E-2   1.627490483224392E-2   6.534706801176071E-2  -2.003321796655655E-1  
 2.500000000000000E9     4.198671877384186E-2  -1.684687882661820E-1   1.511760428547859E-2   7.714920677244663E-3   1.514991000294685E-2   7.805739995092154E-3   6.373492069542408E-3  -1.555012613534927E-1  
 2.520000000000000E9    -1.845682598650456E-2  -1.329838931560516E-1   8.417715318500996E-3  -3.866130486130714E-3   8.428614586591721E-3  -3.675577463582158E-3  -1.724466681480408E-2  -1.080484613776207E-1  
 2.540000000000000E9    -5.725455284118652E-2  -7.807464152574539E-2   3.331049811094999E-3  -1.587260398082435E-3   3.401691792532802E-3  -1.722799381241202E-3  -3.652258217334747E-2  -5.231069028377533E-2  
 2.560000000000000E9    -7.705309242010117E-2   1.806206186302006E-3  -4.822595976293087E-3  -1.421996043063700E-3  -5.025302525609732E-3  -1.459660008549690E-3  -2.171166986227036E-2   1.703753951005638E-3  
 2.580000000000000E9    -6.274555623531342E-2   7.042264938354492E-2  -7.651331368833780E-3   3.100892528891563E-3  -7.892729714512825E-3   3.172722645103931E-3   6.414359435439110E-3   4.675087705254555E-2  
 2.600000000000000E9    -1.936503127217293E-2   1.256048977375031E-1  -7.077443413436413E-3   6.118168588727713E-3  -7.009488996118307E-3   6.129847839474678E-3   4.916257038712502E-2   7.584331184625626E-2  
 2.620000000000000E9     3.731608018279076E-2   1.607738286256790E-1  -5.464076530188322E-3   9.857597760856152E-3  -5.668272729963064E-3   9.515044279396534E-3   9.279725700616837E-2   8.317533880472183E-2  
 2.640000000000000E9     9.826717525720596E-2   1.669116169214249E-1   3.852768277283758E-4   1.121989544481039E-2   1.946129632415250E-4   1.136790029704571E-2   1.342063546180725E-1   8.062861114740372E-2  
 2.660000000000000E9     1.509376466274262E-1   1.614765822887421E-1  -8.983720908872783E-5   1.248105801641941E-2  -2.262561756651849E-4   1.254451461136341E-2   1.701168417930603E-1   6.693006306886673E-2  
 2.680000000000000E9     1.921356320381165E-1   1.329984962940216E-1   4.181781318038702E-3   8.888740092515945E-3   4.133586771786213E-3   8.725108578801155E-3   1.998545229434967E-1   4.985333979129791E-2  
 2.700000000000000E9     2.189531922340393E-1   9.319281578063965E-2   5.730015691369772E-3   5.509311798959971E-3   5.772023461759090E-3   5.602496210485697E-3   2.175997644662857E-1   2.067105844616890E-2  
 2.720000000000000E9     2.391301840543747E-1   4.978272691369057E-2   6.975029129534960E-3   3.877689130604267E-3   7.140177302062511E-3   3.917423542588949E-3   2.272527962923050E-1  -1.614447310566902E-2  
 2.740000000000000E9     2.332471013069153E-1   1.586521416902542E-2   7.501929532736540E-3   1.226530876010656E-3   7.606706116348505E-3   1.325239660218358E-3   2.254128158092499E-1  -4.875444993376732E-2  
 2.760000000000000E9     2.223734557628632E-1  -6.112193688750267E-3   8.056370541453362E-3   1.385768642649055E-3   8.070182055234909E-3   1.499335980042815E-3   2.084885388612747E-1  -7.213704288005829E-2  
 2.780000000000000E9     2.014636993408203E-1  -2.856282889842987E-2   4.476790316402912E-3   3.244757535867393E-4   4.762961994856596E-3   5.815273834741674E-5   1.928539425134659E-1  -8.983284980058670E-2  
 2.800000000000000E9     1.899423748254776E-1  -5.484456568956375E-2   4.613552242517471E-3   7.120474474504590E-4   4.632494878023863E-3   8.194479160010815E-4   1.796217262744904E-1  -1.017859876155853E-1  
 2.820000000000000E9     1.756593137979507E-1  -6.032833829522133E-2   3.057685447856784E-3  -2.031519543379545E-4   3.035004949197173E-3  -2.547595067881048E-4   1.649198383092880E-1  -1.039941534399986E-1  
 2.840000000000000E9     1.588447540998459E-1  -6.317480653524399E-2   6.413835566490889E-3  -2.395799383521080E-3   6.323455367237330E-3  -2.442192053422332E-3   1.486194878816605E-1  -1.012876704335213E-1  
 2.860000000000000E9     1.359695196151733E-1  -5.895545706152916E-2   3.519813297316432E-3  -3.708967007696629E-3   3.608411410823464E-3  -3.515858668833971E-3   1.379388421773911E-1  -9.563773125410080E-2  
 2.880000000000000E9     1.210289224982262E-1  -5.834228172898293E-2   5.555799230933189E-3  -8.449666202068329E-3   5.494212266057730E-3  -8.414989337325096E-3   1.322595179080963E-1  -9.744145721197128E-2  
 2.900000000000000E9     1.036842316389084E-1  -5.125736445188522E-2  -3.190176357747987E-5  -1.081414334475994E-2  -9.937295544659719E-5  -1.068502943962812E-2   1.277748942375183E-1  -8.728446811437607E-2  
 2.920000000000000E9     1.056589111685753E-1  -3.408756852149963E-2  -2.131323097273707E-3  -1.127621438354254E-2  -1.846312778070569E-3  -1.138835586607456E-2   1.306980252265930E-1  -7.325188815593720E-2  
 2.940000000000000E9     1.014809533953667E-1  -1.104512345045805E-2  -8.213408291339874E-3  -1.128611154854298E-2  -8.539024740457535E-3  -1.145741902291775E-2   1.326540857553482E-1  -6.264573335647583E-2  
 2.960000000000000E9     1.001966223120689E-1   6.512452848255634E-3  -1.000827644020319E-2  -6.433624308556318E-3  -9.939206764101982E-3  -6.444182246923447E-3   1.344845592975617E-1  -6.460666656494141E-2  
 2.980000000000000E9     1.094779595732689E-1   1.270515285432339E-2  -1.283276826143265E-2  -3.125821938738227E-3  -1.287530642002821E-2  -3.313760505989194E-3   1.438433825969696E-1  -5.925207212567329E-2  
 3.000000000000000E9     1.326105147600174E-1   2.456633560359478E-2  -1.029214356094599E-2   5.250091198831797E-4  -1.020318735390902E-2   5.696475272998214E-4   1.631519049406052E-1  -5.972491949796677E-2  
 3.020000000000000E9     1.517372876405716E-1   3.121869079768658E-2  -1.018001977354288E-2   4.479363560676575E-3  -9.986733086407185E-3   4.300247877836227E-3   1.735155135393143E-1  -6.013480201363564E-2  
 3.040000000000000E9     1.664233356714249E-1   3.487312048673630E-2  -7.674515713006258E-3   5.631585605442524E-3  -7.578769698739052E-3   5.327447783201933E-3   1.836867928504944E-1  -6.652279943227768E-2  
 3.060000000000000E9     1.900457888841629E-1   2.213011123239994E-2  -7.721918635070324E-3   2.528439974412322E-3  -7.733433507382870E-3   2.906457521021366E-3   1.923885792493820E-1  -7.496916502714157E-2  
 3.080000000000000E9     2.176680415868759E-1   1.293206214904785E-2  -6.498244591057301E-3   2.391577232629061E-3  -6.444900296628475E-3   2.681126585230231E-3   2.121756225824356E-1  -8.195807784795761E-2  
 3.100000000000000E9     2.444365173578262E-1  -4.634696058928967E-3  -4.688141401857138E-3   1.475091790780425E-3  -4.677596502006054E-3   1.754968077875674E-3   2.187729775905609E-1  -9.540648758411408E-2  
 3.120000000000000E9     2.544140815734863E-1  -3.208784759044647E-2  -4.227105528116226E-3   2.722160425037146E-3  -3.972138743847609E-3   2.781151561066508E-3   2.228559851646423E-1  -1.139655187726021E-1  
 3.140000000000000E9     2.615507841110230E-1  -6.678293645381928E-2  -2.805963624268770E-3   9.432486258447170E-4  -2.593834884464741E-3   9.275806951336563E-4   2.296660542488098E-1  -1.479438990354538E-1  
 3.160000000000000E9     2.574985325336456E-1  -1.024239510297775E-1  -2.621393185108900E-3  -6.965497159399092E-4  -2.445306163281202E-3  -9.475443512201309E-4   2.303068190813065E-1  -1.769043952226639E-1  
 3.180000000000000E9     2.489671260118485E-1  -1.341468095779419E-1  -3.745359601452947E-3  -7.896943949162960E-3  -3.569670254364610E-3  -7.892411202192307E-3   2.189838886260986E-1  -2.088732123374939E-1  
 3.200000000000000E9     2.221390455961227E-1  -1.690434366464615E-1  -1.143367681652308E-2  -9.199316613376141E-3  -1.120492629706860E-2  -9.148034267127514E-3   1.854309737682343E-1  -2.345571666955948E-1  
 3.220000000000000E9     1.953222006559372E-1  -1.882123947143555E-1  -1.640100404620171E-2  -6.841700524091721E-3  -1.667592115700245E-2  -7.054077461361885E-3   1.502309292554855E-1  -2.543858289718628E-1  
 3.240000000000000E9     1.529654711484909E-1  -1.989271491765976E-1  -2.097762376070023E-2  -1.095770276151598E-4  -2.104556933045387E-2  -4.933676682412624E-4   1.097566187381744E-1  -2.477168440818787E-1  
 3.260000000000000E9     1.040728539228439E-1  -1.922540664672852E-1  -2.130001410841942E-2   3.307796083390713E-3  -2.129835076630116E-2   3.257548436522484E-3   7.416106760501862E-2  -2.298809885978699E-1  
 3.280000000000000E9     7.460884749889374E-2  -1.700440198183060E-1  -1.916398108005524E-2   8.463267236948013E-3  -1.944357156753540E-2   8.273921906948090E-3   4.975276440382004E-2  -2.022911757230759E-1  
 3.300000000000000E9     5.035840719938278E-2  -1.314782500267029E-1  -1.773945055902004E-2   9.351782500743866E-3  -1.771907880902290E-2   9.153678081929684E-3   4.266678169369698E-2  -1.700432747602463E-1  
 3.320000000000000E9     5.126139894127846E-2  -9.261035919189453E-2  -1.632750034332275E-2   1.253331452608109E-2  -1.657061651349068E-2   1.271855458617210E-2   4.632763937115669E-2  -1.353962570428848E-1  
 3.340000000000000E9     5.677659809589386E-2  -5.134354159235954E-2  -1.403125841170549E-2   1.244940236210823E-2  -1.440317463129759E-2   1.214487385004759E-2   6.336103379726410E-2  -1.087683290243149E-1  
 3.360000000000000E9     8.266101777553558E-2  -3.517515212297440E-2  -1.454946491867304E-2   1.508341450244188E-2  -1.490980200469494E-2   1.512130815535784E-2   7.889359444379807E-2  -9.485613554716110E-2  
 3.380000000000000E9     1.157943308353424E-1  -2.478786930441856E-2  -1.531177945435047E-2   2.026601694524288E-2  -1.523782778531313E-2   2.014514431357384E-2   1.033210977911949E-1  -9.304164350032806E-2  
 3.400000000000000E9     1.453864872455597E-1  -1.824765652418137E-2  -1.130805443972349E-2   2.445976994931698E-2  -1.161696948111057E-2   2.439495734870434E-2   1.308958232402802E-1  -8.843324333429337E-2  
 3.420000000000000E9     1.647649109363556E-1  -2.512581087648869E-2  -6.042915396392345E-3   2.639102190732956E-2  -6.105819251388311E-3   2.637376450002194E-2   1.514386385679245E-1  -8.700787276029587E-2  
 3.440000000000000E9     1.884284168481827E-1  -3.780735284090042E-2   6.809156038798392E-4   2.662879787385464E-2   4.220706177875400E-4   2.673828601837158E-2   1.694395989179611E-1  -9.616985917091370E-2  
 3.460000000000000E9     2.044124007225037E-1  -5.336304008960724E-2   4.732625558972359E-3   2.437400445342064E-2   4.596301354467869E-3   2.432935871183872E-2   1.901076436042786E-1  -1.077881157398224E-1  
 3.480000000000000E9     2.203484475612640E-1  -6.460350006818771E-2   1.016244385391474E-2   1.777042821049690E-2   1.006122678518295E-2   1.778925210237503E-2   2.109115123748779E-1  -1.251552700996399E-1  
 3.500000000000000E9     2.406095266342163E-1  -8.405592292547226E-2   1.144915260374546E-2   1.395918615162373E-2   1.133262924849987E-2   1.411872822791338E-2   2.309023737907410E-1  -1.463356912136078E-1  
 3.520000000000000E9     2.482727915048599E-1  -1.070486307144165E-1   1.266973745077848E-2   8.363304659724236E-3   1.280242484062910E-2   8.428887464106083E-3   2.425058186054230E-1  -1.732921898365021E-1  
 3.540000000000000E9     2.622496485710144E-1  -1.370031535625458E-1   9.864333085715771E-3   4.712621681392193E-3   1.007616706192493E-2   4.771281499415636E-3   2.457293570041657E-1  -2.127937078475952E-1  
 3.560000000000000E9     2.624484598636627E-1  -1.661374568939209E-1   8.864224888384342E-3   6.783321732655168E-4   8.915977552533150E-3   7.611832697875798E-4   2.475806921720505E-1  -2.448223382234573E-1  
 3.580000000000000E9     2.547200024127960E-1  -2.035598754882813E-1   3.772548865526915E-3   3.338525712024421E-4   3.696068888530135E-3   3.933574189431965E-4   2.378226369619370E-1  -2.816833555698395E-1  
 3.600000000000000E9     2.426017075777054E-1  -2.434509247541428E-1   3.644662210717797E-4   8.729323744773865E-4   2.737679169513285E-4   9.655473986640573E-4   2.212125957012177E-1  -3.205839991569519E-1  
 3.620000000000000E9     2.163712233304977E-1  -2.711733877658844E-1  -4.059869796037674E-3   3.248467110097408E-3  -3.885867772623897E-3   3.225616179406643E-3   1.871140450239182E-1  -3.472934365272522E-1  
 3.640000000000000E9     1.843177825212479E-1  -3.000974059104919E-1  -5.111249629408121E-3   4.138982389122248E-3  -5.073716398328543E-3   4.389700945466757E-3   1.522094309329987E-1  -3.665369749069214E-1  
 3.660000000000000E9     1.460856497287750E-1  -3.155936598777771E-1  -5.133596714586020E-3   7.641845382750034E-3  -5.055026151239872E-3   7.653625681996346E-3   1.154018640518189E-1  -3.781902790069580E-1  
 3.680000000000000E9     1.015944033861160E-1  -3.196134567260742E-1  -3.533974988386035E-3   7.981913164258003E-3  -3.366415388882160E-3   8.251777850091457E-3   7.251755893230438E-2  -3.845053911209106E-1  
 3.700000000000000E9     5.645255744457245E-2  -3.118855059146881E-1  -2.096076263114810E-3   8.153636008501053E-3  -2.186581026762724E-3   7.931342348456383E-3   2.977362647652626E-2  -3.678421676158905E-1  
 3.720000000000000E9     2.260498702526093E-2  -2.871525883674622E-1  -1.926596509292722E-3   7.000404875725508E-3  -1.749108661897481E-3   7.115132641047239E-3  -3.603921271860600E-3  -3.508546948432922E-1  
 3.740000000000000E9    -2.268827520310879E-4  -2.547559738159180E-1  -2.506259363144636E-3   6.491557694971561E-3  -2.712663263082504E-3   6.385593675076962E-3  -2.342933788895607E-2  -3.277002573013306E-1  
 3.760000000000000E9    -2.000832930207253E-2  -2.243845313787460E-1  -7.392133120447397E-3   6.334432866424322E-3  -7.486310787498951E-3   6.375219207257032E-3  -4.100556671619415E-2  -3.025526404380798E-1  
 3.780000000000000E9    -2.546107582747936E-2  -1.930169463157654E-1  -1.032469421625137E-2   1.114109624177218E-2  -1.041888166218996E-2   1.129296794533730E-2  -4.653404280543327E-2  -2.680076658725739E-1  
 3.800000000000000E9    -1.089210901409388E-2  -1.649634987115860E-1  -1.007176004350185E-2   1.898701488971710E-2  -9.797457605600357E-3   1.901320926845074E-2  -4.506976157426834E-2  -2.414434850215912E-1  
 3.820000000000000E9     6.687297020107508E-3  -1.483278274536133E-1  -5.570846609771252E-3   2.672857232391834E-2  -5.629594437777996E-3   2.637210302054882E-2  -4.091153293848038E-2  -2.207817882299423E-1  
 3.840000000000000E9     2.123807743191719E-2  -1.414952576160431E-1   6.522453390061855E-3   3.166238218545914E-2   6.335409823805094E-3   3.134295344352722E-2  -2.750147879123688E-2  -2.094188034534454E-1  
 3.860000000000000E9     3.038769215345383E-2  -1.300347000360489E-1   1.662963069975376E-2   2.576036565005779E-2   1.660161092877388E-2   2.595989964902401E-2  -1.142663881182671E-2  -1.871638745069504E-1  
